01 11 C0 2C // Tao ket noi
01 03 44 07 00 01 21 3B
01 03 44 00 00 01 90 FA //Duy tri ket noi (online)

01 10 44 28 00 01 02 00 01 65 BC		// chua biet
01 06 44 30 00 01 5C F5				//chua biet
01 10 44 2F 00 01 02 03 03 E5 3A		// kha nang la cho phep bat dau download
01 0F 74 29 00 01 01 01 B8 25			// Lock Program
// 
Lenh sai khac
01 03 44 00 00 01 90 FA 





01 03 40 15 00 09 81 C8   /Doc CPU Detail

01 0F 60 1E 00 01 01 01 4E F5    //Reset PLC                 ..`.....Nı

01 0F 60 22 00 01 01 01 1E F0  //Disable Output                    ..`".....

01 0F 60 22 00 01 01 00 DF 30  //Enable Output                  ..`"....ﬂ0




01 10 44 28 00 01 02 00 02 25 BD  //Run PLC
01 10 44 28 00 01 02 00 01 65 BC	//STOP PLC

 W : 01 10 44 2C 00 03 06 31 32 33 34 35 36 83 0D      ..D,...123456É.
//Nhap sai PW
R: 01 10 44 2C 00 03 55 31                            ..D,..U1


 W: 01 10 44 2C 00 03 06 31 31 31 31 31 31 95 B6      ..D,...111111ï∂
R:  01 10 44 2C 00 03 55 31                           ..D,..U1



01 03 44 0A 00 03 31 39  //Read pW


01 10 44 29 00 03 06 31 31 31 31 31 31 85 A6       ..D)...111111Ö¶
//  Write pass trong qua trinh download
 01 0F 74 29 00 01 01 01 B8 25                     ..t)....∏%


01 10 44 29 00 03 06 20 20 20 20 20 20 E3 81      ..D)...      „Å
//  Write trong pass trong qua trinh download
01 0F 74 29 00 01 01 01 B8 25                      ..t)....∏%



01 01 74 02 00 01 47 FA                            ..t...G˙
//Kiem tra co PW khong ?
01 01 01 01 90 48                                 ....êH
//Co PW
01 01 01 00 51 88                                 ....Qà
//Khong co PW



01 0F 48 00 00 01 01 01 E0 DF                     ..H.....‡ﬂ
//Set Y0
01 0F 48 00 00 01 01 00 21 1F                     ..H.....!.
//RST Y0
01 0F 48 40 00 01 01 01 E1 10                      ..H@....·.
//Set Y100
01 0F 48 40 00 01 01 00 20 D0                     ..H@.... –
//RST Y100


W: 01 19 00 02 01 60 0D 00 01 48 00 00 40 81 AB      .....`...H..@Å´//Read tu Y0-Y77
R: 01 19 09 00 00  01   00   00   00   00   00   00   23 72   
      ............#r
//Monitor Y
               Y0  Y10  Y20  Y30  Y40  Y50  Y60  Y70
//
W: 01 19 00 03 01 48 00 00 01 60 0D 00 01 48 30 00    .....H...`...H0.//Read tu Y100-Y177
 40 F7 FF                                          @˜ˇ
R: 01 19 0A 00 00 00 00 00 00 00 00 00 00 FD 51      .............˝Q
//
W: 01 19 00 03 01 48 00 00 01 60 0D 00 01 48 70 00   .....H...`...Hp.//Read tu Y200-Y277
 40 F6 2B                                          @ˆ+
R: 01 19 0A 00 00 00 00 00 00 00 00 00 00 FD 51      .............˝Q
//
48 00 // Dia chi Y








